Time [s],Packet ID,MOSI,MISO
0.9413200313,0,0xC0,0xAA    GET STATUS
0.9413266563,0,0x00,0x2A    
0.9413428125,1,0xC0,0xAA    GET STATUS
0.9413494063,1,0x00,0x2A
0.9413622813,2,0x80,0xAA    SET STANDBY
0.9413695938,2,0x00,0xAA    -> RC OSC
0.9413990313,3,0x97,0xA2    SET D3 AS TCXO
0.9414056250,3,0x02,0xA2    -> 1.8V
0.9414122500,3,0x00,0xA2    -> DELAY: 0x00 * 16
0.9414188750,3,0x01,0xA2    -> DELAY: 0x01 * 8
0.9414255000,3,0x40,0xA2    -> DELAY: 0x40
0.9414534375,4,0x89,0xA2    CALIBRATE
0.9414600625,4,0x7F,0xA2    -> 0x7F 0b0111 1111 -> CALIBRATE everything
0.9508936875,5,0x9D,0xA2    SET D2 as RF SWITCH
0.9509003125,5,0x01,0xA2    -> YES
0.9509204063,6,0x80,0xA2    SET STANDBY
0.9509270313,6,0x00,0xA2    -> RC OSC AGAIN ?
0.9509523438,7,0x96,0xA2    SET REGULATOR MODE
0.9509589688,7,0x01,0xA2    -> DC_DC+LDO used for STBY_XOSC,FS,RX,TX ?
0.9509788438,8,0x8F,0xA2    SET BUFFER BASE ADDR
0.9509854688,8,0x00,0xA2    -> TX at 0x00
0.9509920938,8,0x00,0xA2    -> RX at 0x00
0.9510207813,9,0x95,0xA2    SET PA CONFIG
0.9510274063,9,0x04,0xA2    -> DUTY CYCLIE: 0x04   -> MAX
0.9510340313,9,0x07,0xA2    -> HPMAX: 0x07         -> MAX
0.9510406563,9,0x00,0xA2    -> DEV: SX1262 
0.9510472813,9,0x01,0xA2    -> paLUT always 0x01
0.9510770938,10,0x0D,0xA2   WRITE REG
0.9510836875,10,0x08,0xA2   -> 0x08E7
0.9510909063,10,0xE7,0xA2   --> OCP CONFIG
0.9510975313,10,0x38,0xA2   -> 140mA
0.9511096250,11,0x8E,0xA2   SET TX PARAMS
0.9511162500,11,0x00,0xA2   -> 0 dBm
0.9511228750,11,0x04,0xA2   -> 200 uS Ramp Time
0.9511481563,12,0x08,0xA2   SET DIO IRQ   ---- DISABLE IRQ
0.9511547500,12,0x00,0xA2   -> MASK 0x0000
0.9511613750,12,0x00,0xA2   --
0.9511680000,12,0x00,0xA2   -> DIO1 MASK 0x0000
0.9511746250,12,0x00,0xA2   --
0.9511812500,12,0x00,0xA2   -> DIO2 MASK 0x0000
0.9511878750,12,0x00,0xA2   --
0.9511945000,12,0x00,0xA2   -> DIO3 MASK 0x0000
0.9512011250,12,0x00,0xA2   --
0.9512215625,13,0x98,0xA2   CALIBRATE IMAGE
0.9512281875,13,0xE1,0xA2   -> freq1: 0xE1
0.9512348125,13,0xE9,0xA2   -> freq2: 0xE9
0.9578471563,14,0x86,0xA2   SET RF FREQ
0.9578537813,14,0x39,0xA2   --  TODO
0.9578604063,14,0x30,0xA2   --
0.9578670313,14,0x00,0xA2   --
0.9578736563,14,0x00,0xA2   --
0.9579680625,15,0x80,0xA2   SET STANDBY
0.9579746563,15,0x00,0xA2   -> RC OSC AGAIN ?
0.9580033438,16,0x8A,0xA2   SET PACKET TYPE
0.9580099688,16,0x01,0xA2   --> LORA
0.9580459375,17,0x8B,0xA2   SET MODULATION PARAM
0.9580525625,17,0x07,0xA2   -> SF: 7
0.9580591875,17,0x04,0xA2   -> BW: 0x04 -> 125kHz
0.9580658125,17,0x01,0xA2   -> CR: 0x01 4/5
0.9580724375,17,0x00,0xA2   -> LDRO: OFF
0.9581648125,18,0x8C,0xA2   SET PACKET PARAMS
0.9581714375,18,0x00,0xA2   -> PREAMBLE LENGTH
0.9581780625,18,0x08,0xA2   ---> 0x0008
0.9581846875,18,0x00,0xA2   -> HEADER: EXPLICIT
0.9581913125,18,0xFF,0xA2   -> PAYLOAD LENGTH: 0xFF MAX
0.9581979375,18,0x01,0xA2   -> CRC: ON
0.9582045625,18,0x00,0xA2   -> INVERT IQ: OFF
0.9582314063,19,0x95,0xA2   SET PA CONFIG:
0.9582380000,19,0x04,0xA2   -> DUTY CYCLIE: 0x04   -> MAX
0.9582446250,19,0x07,0xA2   -> HPMAX: 0x07         -> MAX
0.9582512500,19,0x00,0xA2   -> DEV: SX1262 
0.9582578750,19,0x01,0xA2   -> paLUT always 0x01
0.9582828750,20,0x0D,0xA2   WRITE REG
0.9582895000,20,0x08,0xA2   -> 0x08E7
0.9582960938,20,0xE7,0xA2   --> OCP CONFIG
0.9583058438,20,0x38,0xA2   -> 140mA
0.9583179688,21,0x8E,0xA2   SET TX PARAMS
0.9583245938,21,0x05,0xA2   -> 5 dBm
0.9583312188,21,0x07,0xA2   -> 3400 uS Ramp Time
1.9586611250,22,0x08,0xA2   DIO IRQ
1.9586685000,22,0x02,0xA2
1.9586751250,22,0x01,0xA2
1.9586817500,22,0x02,0xA2
1.9586883750,22,0x01,0xA2
1.9586950000,22,0x00,0xA2
1.9587016250,22,0x00,0xA2
1.9587082500,22,0x00,0xA2
1.9587148750,22,0x00,0xA2
1.9587320000,23,0x8C,0xA2   SET PACKET PARAMS
1.9587385938,23,0x00,0xA2
1.9587452188,23,0x08,0xA2
1.9587518438,23,0x00,0xA2
1.9587584688,23,0x17,0xA2
1.9587650938,23,0x01,0xA2
1.9587717188,23,0x00,0xA2   
1.9588003437,24,0x0E,0xA2   WRITE BUFFER
1.9588069688,24,0x00,0xA2   -> OFFSET 0x00
1.9588145938,24,0x48,0xA2   "H"
1.9588215313,24,0x65,0xA2   "e"
1.9588350625,24,0x6C,0xA2   "l"
1.9588419063,24,0x6C,0xA2   "l"
1.9588487188,24,0x6F,0xA2   "o"
1.9588553438,24,0x20,0xA2   " "
1.9588619688,24,0x77,0xA2   "w"
1.9588685938,24,0x6F,0xA2   "o"
1.9588752188,24,0x72,0xA2   "r"
1.9588818438,24,0x6C,0xA2   "l"
1.9588884687,24,0x64,0xA2   "d"
1.9588950938,24,0x20,0xA2   " "
1.9589017188,24,0x6E,0xA2
1.9589083437,24,0x75,0xA2
1.9589149688,24,0x6D,0xA2
1.9589215938,24,0x62,0xA2
1.9589282187,24,0x65,0xA2
1.9589348438,24,0x72,0xA2
1.9589414688,24,0x20,0xA2   " "
1.9589480937,24,0x30,0xA2
1.9589547188,24,0x2E,0xA2
1.9589613438,24,0x30,0xA2
1.9589679687,24,0x31,0xA2
1.9589819063,25,0x83,0xA2   SET TX
1.9589892500,25,0x00,0xA2   -> DELAY 0
1.9589958750,25,0x00,0xA2   ---
1.9590025000,25,0x00,0xA2   ---
2.0330898125,26,0x12,0xAC   GET IRQ STATUS
2.0330964375,26,0x00,0xAC
2.0331038438,26,0x00,0x00
2.0331105000,26,0x00,0x01
2.0331244688,27,0x02,0xAC   CLEAR IRQ
2.0331310625,27,0xFF,0xAC   
2.0331376875,27,0xFF,0xAC
3.0334385312,28,0xC0,0xAC   GET STATUS
3.0334451563,28,0x00,0x2C
3.0334570625,29,0x08,0xAC
3.0334636875,29,0x02,0xAC
3.0334703125,29,0x01,0xAC
3.0334769375,29,0x02,0xAC
3.0334835625,29,0x01,0xAC
3.0334901875,29,0x00,0xAC
3.0334968125,29,0x00,0xAC
3.0335034375,29,0x00,0xAC
3.0335100625,29,0x00,0xAC
3.0335272188,30,0xC0,0xAC
3.0335338125,30,0x00,0x2C
3.0335450625,31,0x8C,0xAC
3.0335516875,31,0x00,0xAC
3.0335583125,31,0x08,0xAC
3.0335649375,31,0x00,0xAC
3.0335715625,31,0x17,0xAC
3.0335781875,31,0x01,0xAC
3.0335848125,31,0x00,0xAC
3.0336075938,32,0xC0,0xA2       GET STATUS
3.0336141875,32,0x00,0x22 
3.0336255000,33,0x0E,0xA2       WRITE BUFFER
3.0336320938,33,0x00,0xA2
3.0336387187,33,0x48,0xA2
3.0336453437,33,0x65,0xA2
3.0336519688,33,0x6C,0xA2
3.0336585937,33,0x6C,0xA2
3.0336652187,33,0x6F,0xA2
3.0336718438,33,0x20,0xA2
3.0336784687,33,0x77,0xA2
3.0336850937,33,0x6F,0xA2
3.0336917188,33,0x72,0xA2
3.0336983437,33,0x6C,0xA2
3.0337049687,33,0x64,0xA2
3.0337115938,33,0x20,0xA2
3.0337182187,33,0x6E,0xA2
3.0337248437,33,0x75,0xA2
3.0337314688,33,0x6D,0xA2
3.0337380937,33,0x62,0xA2
3.0337447187,33,0x65,0xA2
3.0337513438,33,0x72,0xA2
3.0337579687,33,0x20,0xA2
3.0337645937,33,0x30,0xA2
3.0337712188,33,0x2E,0xA2
3.0337778437,33,0x30,0xA2
3.0337844687,33,0x32,0xA2
3.0337969063,34,0x83,0xA2
3.0338035312,34,0x00,0xA2
3.0338101562,34,0x00,0xA2
3.0338167813,34,0x00,0xA2
3.1079046875,35,0x12,0xAC
3.1079112812,35,0x00,0xAC
3.1079187188,35,0x00,0x00
3.1079253437,35,0x00,0x01
3.1079376250,36,0x02,0xAC
3.1079442500,36,0xFF,0xAC
3.1079508750,36,0xFF,0xAC
4.1084756563,37,0xC0,0xAC
4.1084822500,37,0x00,0x2C
4.1084943750,38,0x08,0xAC
4.1085010000,38,0x02,0xAC
4.1085076250,38,0x01,0xAC
4.1085142500,38,0x02,0xAC
4.1085208750,38,0x01,0xAC
4.1085275000,38,0x00,0xAC
4.1085341250,38,0x00,0xAC
4.1085407500,38,0x00,0xAC
4.1085473750,38,0x00,0xAC
4.1085640000,39,0xC0,0xAC
4.1085705937,39,0x00,0x2C
4.1085819063,40,0x8C,0xAC
4.1085885000,40,0x00,0xAC
4.1085951250,40,0x08,0xAC
4.1086017500,40,0x00,0xAC
4.1086083750,40,0x17,0xAC
4.1086150000,40,0x01,0xAC
4.1086216250,40,0x00,0xAC
4.1086436875,41,0xC0,0xA2
4.1086503125,41,0x00,0x22
4.1086615937,42,0x0E,0xA2
4.1086681875,42,0x00,0xA2
4.1086748125,42,0x48,0xA2
4.1086814375,42,0x65,0xA2
4.1086880625,42,0x6C,0xA2
4.1086946875,42,0x6C,0xA2
4.1087013125,42,0x6F,0xA2
4.1087079375,42,0x20,0xA2
4.1087145625,42,0x77,0xA2
4.1087211875,42,0x6F,0xA2
4.1087278125,42,0x72,0xA2
4.1087344375,42,0x6C,0xA2
4.1087410625,42,0x64,0xA2
4.1087476875,42,0x20,0xA2
4.1087543125,42,0x6E,0xA2
4.1087609375,42,0x75,0xA2
4.1087675625,42,0x6D,0xA2
4.1087742187,42,0x62,0xA2
4.1087808437,42,0x65,0xA2
4.1087874688,42,0x72,0xA2
4.1087940938,42,0x20,0xA2
4.1088007188,42,0x30,0xA2
4.1088073437,42,0x2E,0xA2
4.1088139687,42,0x30,0xA2
4.1088205937,42,0x33,0xA2
4.1088341875,43,0x83,0xA2
4.1088408125,43,0x00,0xA2
4.1088474375,43,0x00,0xA2
4.1088540625,43,0x00,0xA2
4.1829456250,44,0x12,0xAC
4.1829522187,44,0x00,0xAC
4.1829596563,44,0x00,0x00
4.1829662812,44,0x00,0x01
4.1829785937,45,0x02,0xAC
4.1829852187,45,0xFF,0xAC
4.1829918438,45,0xFF,0xAC
5.1834938125,46,0xC0,0xAC
5.1835004063,46,0x00,0x2C
5.1835125000,47,0x08,0xAC
5.1835190938,47,0x02,0xAC
5.1835257188,47,0x01,0xAC
5.1835323437,47,0x02,0xAC
5.1835389687,47,0x01,0xAC
5.1835455937,47,0x00,0xAC
5.1835522188,47,0x00,0xAC
5.1835588438,47,0x00,0xAC
5.1835654688,47,0x00,0xAC
5.1835826562,48,0xC0,0xAC
5.1835892500,48,0x00,0x2C
5.1836005000,49,0x8C,0xAC
5.1836071250,49,0x00,0xAC
5.1836137500,49,0x08,0xAC
5.1836203750,49,0x00,0xAC
5.1836270000,49,0x17,0xAC
5.1836336250,49,0x01,0xAC
5.1836402500,49,0x00,0xAC
5.1836630313,50,0xC0,0xA2
5.1836696563,50,0x00,0x22
5.1836809375,51,0x0E,0xA2
5.1836875313,51,0x00,0xA2
5.1836941562,51,0x48,0xA2
5.1837007812,51,0x65,0xA2
5.1837074062,51,0x6C,0xA2
5.1837140313,51,0x6C,0xA2
5.1837206563,51,0x6F,0xA2
5.1837272813,51,0x20,0xA2
5.1837339062,51,0x77,0xA2
5.1837405312,51,0x6F,0xA2
5.1837471562,51,0x72,0xA2
5.1837537813,51,0x6C,0xA2
5.1837604063,51,0x64,0xA2
5.1837670313,51,0x20,0xA2
5.1837736562,51,0x6E,0xA2
5.1837802812,51,0x75,0xA2
5.1837869062,51,0x6D,0xA2
5.1837935313,51,0x62,0xA2
5.1838001563,51,0x65,0xA2
5.1838067813,51,0x72,0xA2
5.1838134062,51,0x20,0xA2
5.1838200312,51,0x30,0xA2
5.1838266562,51,0x2E,0xA2
5.1838332813,51,0x30,0xA2
5.1838399063,51,0x34,0xA2
5.1838523750,52,0x83,0xA2
5.1838589688,52,0x00,0xA2
5.1838655938,52,0x00,0xA2
5.1838722188,52,0x00,0xA2
5.2579719375,53,0x12,0xAC
5.2579785313,53,0x00,0xAC
5.2579859687,53,0x00,0x00
5.2579925938,53,0x00,0x01
5.2580048750,54,0x02,0xAC
5.2580115000,54,0xFF,0xAC
5.2580181250,54,0xFF,0xAC
6.2585300000,55,0xC0,0xAC
6.2585365937,55,0x00,0x2C
6.2585486875,56,0x08,0xAC
6.2585552812,56,0x02,0xAC
6.2585619062,56,0x01,0xAC
6.2585685312,56,0x02,0xAC
6.2585751563,56,0x01,0xAC
6.2585817813,56,0x00,0xAC
6.2585884063,56,0x00,0xAC
6.2585950312,56,0x00,0xAC
6.2586016562,56,0x00,0xAC
6.2586182500,57,0xC0,0xAC
6.2586248437,57,0x00,0x2C
6.2586360937,58,0x8C,0xAC
6.2586426875,58,0x00,0xAC
6.2586493125,58,0x08,0xAC
6.2586559375,58,0x00,0xAC
6.2586625625,58,0x17,0xAC
6.2586691875,58,0x01,0xAC
6.2586758125,58,0x00,0xAC
6.2586978750,59,0xC0,0xA2
6.2587045000,59,0x00,0x22
6.2587157813,60,0x0E,0xA2
6.2587223750,60,0x00,0xA2
6.2587290000,60,0x48,0xA2
6.2587356250,60,0x65,0xA2
6.2587422500,60,0x6C,0xA2
6.2587488750,60,0x6C,0xA2
6.2587555000,60,0x6F,0xA2
6.2587621250,60,0x20,0xA2
6.2587687500,60,0x77,0xA2
6.2587753750,60,0x6F,0xA2
6.2587820313,60,0x72,0xA2
6.2587886563,60,0x6C,0xA2
6.2587952813,60,0x64,0xA2
6.2588019063,60,0x20,0xA2
6.2588085312,60,0x6E,0xA2
6.2588151562,60,0x75,0xA2
6.2588217813,60,0x6D,0xA2
6.2588284063,60,0x62,0xA2
6.2588350313,60,0x65,0xA2
6.2588416563,60,0x72,0xA2
6.2588482812,60,0x20,0xA2
6.2588549062,60,0x30,0xA2
6.2588615313,60,0x2E,0xA2
6.2588681563,60,0x30,0xA2
6.2588747813,60,0x35,0xA2
6.2588872188,61,0x83,0xA2
6.2588938438,61,0x00,0xA2
6.2589004688,61,0x00,0xA2
6.2589070938,61,0x00,0xA2
6.3329980937,62,0x12,0xAC
6.3330046875,62,0x00,0xAC
6.3330121250,62,0x00,0x00
6.3330187500,62,0x00,0x01
6.3330310313,63,0x02,0xAC
6.3330376563,63,0xFF,0xAC
6.3330442813,63,0xFF,0xAC
7.3335443437,64,0xC0,0xAC
7.3335509375,64,0x00,0x2C
7.3335630625,65,0x08,0xAC
7.3335696875,65,0x02,0xAC
7.3335763125,65,0x01,0xAC
7.3335829375,65,0x02,0xAC
7.3335895625,65,0x01,0xAC
7.3335961875,65,0x00,0xAC
7.3336028125,65,0x00,0xAC
7.3336094375,65,0x00,0xAC
7.3336160625,65,0x00,0xAC
7.3336325938,66,0xC0,0xAC
7.3336391875,66,0x00,0x2C
7.3336505000,67,0x8C,0xAC
7.3336571250,67,0x00,0xAC
7.3336637500,67,0x08,0xAC
7.3336703750,67,0x00,0xAC
7.3336770000,67,0x17,0xAC
7.3336836250,67,0x01,0xAC
7.3336902500,67,0x00,0xAC
7.3337147187,68,0xC0,0xA2
7.3337213125,68,0x00,0x22
7.3337325625,69,0x0E,0xA2
7.3337391875,69,0x00,0xA2
7.3337458125,69,0x48,0xA2
7.3337524375,69,0x65,0xA2
7.3337590625,69,0x6C,0xA2
7.3337656875,69,0x6C,0xA2
7.3337723125,69,0x6F,0xA2
7.3337789375,69,0x20,0xA2
7.3337855625,69,0x77,0xA2
7.3337921875,69,0x6F,0xA2
7.3337988125,69,0x72,0xA2
7.3338054375,69,0x6C,0xA2
7.3338120625,69,0x64,0xA2
7.3338186875,69,0x20,0xA2
7.3338253125,69,0x6E,0xA2
7.3338319375,69,0x75,0xA2
7.3338385625,69,0x6D,0xA2
7.3338451875,69,0x62,0xA2
7.3338518125,69,0x65,0xA2
7.3338584375,69,0x72,0xA2
7.3338650625,69,0x20,0xA2
7.3338716875,69,0x30,0xA2
7.3338783125,69,0x2E,0xA2
7.3338849375,69,0x30,0xA2
7.3338915625,69,0x36,0xA2
7.3339040313,70,0x83,0xA2
7.3339106562,70,0x00,0xA2
7.3339172812,70,0x00,0xA2
7.3339239062,70,0x00,0xA2
7.4080095000,71,0x12,0xAC
7.4080160937,71,0x00,0xAC
7.4080235312,71,0x00,0x00
7.4080301562,71,0x00,0x01
7.4080424375,72,0x02,0xAC
7.4080490625,72,0xFF,0xAC
7.4080556875,72,0xFF,0xAC
8.4085779062,73,0xC0,0xAC
8.4085845312,73,0x00,0x2C
8.4085966562,74,0x08,0xAC
8.4086032500,74,0x02,0xAC
8.4086098750,74,0x01,0xAC
8.4086165000,74,0x02,0xAC
8.4086231250,74,0x01,0xAC
8.4086297500,74,0x00,0xAC
8.4086363750,74,0x00,0xAC
8.4086430000,74,0x00,0xAC
8.4086496250,74,0x00,0xAC
8.4086668750,75,0xC0,0xAC
8.4086734688,75,0x00,0x2C
8.4086847500,76,0x8C,0xAC
8.4086913750,76,0x00,0xAC
8.4086980000,76,0x08,0xAC
8.4087046250,76,0x00,0xAC
8.4087112500,76,0x17,0xAC
8.4087178750,76,0x01,0xAC
8.4087245000,76,0x00,0xAC
8.4087466562,77,0xC0,0xA2
8.4087532500,77,0x00,0x22
8.4087645625,78,0x0E,0xA2
8.4087711562,78,0x00,0xA2
8.4087777812,78,0x48,0xA2
8.4087844062,78,0x65,0xA2
8.4087910312,78,0x6C,0xA2
8.4087976562,78,0x6C,0xA2
8.4088042812,78,0x6F,0xA2
8.4088109062,78,0x20,0xA2
8.4088175312,78,0x77,0xA2
8.4088241562,78,0x6F,0xA2
8.4088307812,78,0x72,0xA2
8.4088374063,78,0x6C,0xA2
8.4088440312,78,0x64,0xA2
8.4088506562,78,0x20,0xA2
8.4088572812,78,0x6E,0xA2
8.4088639062,78,0x75,0xA2
8.4088705312,78,0x6D,0xA2
8.4088771562,78,0x62,0xA2
8.4088837812,78,0x65,0xA2
8.4088904062,78,0x72,0xA2
8.4088970312,78,0x20,0xA2
8.4089036562,78,0x30,0xA2
8.4089102812,78,0x2E,0xA2
8.4089169063,78,0x30,0xA2
8.4089235312,78,0x37,0xA2
8.4089360000,79,0x83,0xA2
8.4089426250,79,0x00,0xA2
8.4089492500,79,0x00,0xA2
8.4089558750,79,0x00,0xA2
8.4830408437,80,0x12,0xAC
8.4830474375,80,0x00,0xAC
8.4830548750,80,0x00,0x00
8.4830615000,80,0x00,0x01
8.4830737500,81,0x02,0xAC
8.4830803437,81,0xFF,0xAC
8.4830869687,81,0xFF,0xAC
9.4835997187,82,0xC0,0xAC
9.4836063125,82,0x00,0x2C
9.4836183750,83,0x08,0xAC
9.4836250000,83,0x02,0xAC
9.4836316250,83,0x01,0xAC
9.4836382500,83,0x02,0xAC
9.4836448750,83,0x01,0xAC
9.4836515000,83,0x00,0xAC
9.4836581250,83,0x00,0xAC
9.4836647500,83,0x00,0xAC
9.4836713750,83,0x00,0xAC
9.4836880000,84,0xC0,0xAC
9.4836945937,84,0x00,0x2C
9.4837059062,85,0x8C,0xAC
9.4837125000,85,0x00,0xAC
9.4837191250,85,0x08,0xAC
9.4837257500,85,0x00,0xAC
9.4837323750,85,0x17,0xAC
9.4837390000,85,0x01,0xAC
9.4837456250,85,0x00,0xAC
9.4837701562,86,0xC0,0xA2
9.4837767500,86,0x00,0x22
9.4837880312,87,0x0E,0xA2
9.4837946562,87,0x00,0xA2
9.4838012812,87,0x48,0xA2
9.4838079062,87,0x65,0xA2
9.4838145312,87,0x6C,0xA2
9.4838211562,87,0x6C,0xA2
9.4838277812,87,0x6F,0xA2
9.4838344062,87,0x20,0xA2
9.4838410312,87,0x77,0xA2
9.4838476562,87,0x6F,0xA2
9.4838542812,87,0x72,0xA2
9.4838609062,87,0x6C,0xA2
9.4838675312,87,0x64,0xA2
9.4838741562,87,0x20,0xA2
9.4838807812,87,0x6E,0xA2
9.4838874062,87,0x75,0xA2
9.4838940312,87,0x6D,0xA2
9.4839006562,87,0x62,0xA2
9.4839072812,87,0x65,0xA2
9.4839139062,87,0x72,0xA2
9.4839205312,87,0x20,0xA2
9.4839271562,87,0x30,0xA2
9.4839337812,87,0x2E,0xA2
9.4839404062,87,0x30,0xA2
9.4839470312,87,0x38,0xA2
9.4839594375,88,0x83,0xA2
9.4839660312,88,0x00,0xA2
9.4839726562,88,0x00,0xA2
9.4839792812,88,0x00,0xA2
9.5580765000,89,0x12,0xAC
9.5580831250,89,0x00,0xAC
9.5580905312,89,0x00,0x00
9.5580971875,89,0x00,0x01
9.5581095000,90,0x02,0xAC
9.5581161250,90,0xFF,0xAC
9.5581227500,90,0xFF,0xAC
10.5586293750,91,0xC0,0xAC
10.5586359687,91,0x00,0x2C
10.5586480937,92,0x08,0xAC
10.5586547187,92,0x02,0xAC
10.5586613437,92,0x01,0xAC
10.5586679687,92,0x02,0xAC
10.5586745937,92,0x01,0xAC
10.5586812187,92,0x00,0xAC
10.5586878437,92,0x00,0xAC
10.5586944687,92,0x00,0xAC
10.5587010937,92,0x00,0xAC
10.5587182187,93,0xC0,0xAC
10.5587248125,93,0x00,0x2C
10.5587360625,94,0x8C,0xAC
10.5587426875,94,0x00,0xAC
10.5587493125,94,0x08,0xAC
10.5587559375,94,0x00,0xAC
10.5587625625,94,0x17,0xAC
10.5587691875,94,0x01,0xAC
10.5587758125,94,0x00,0xAC
10.5587978750,95,0xC0,0xA2
10.5588044687,95,0x00,0x22
10.5588157187,96,0x0E,0xA2
10.5588223125,96,0x00,0xA2
10.5588289375,96,0x48,0xA2
10.5588355625,96,0x65,0xA2
10.5588421875,96,0x6C,0xA2
10.5588488125,96,0x6C,0xA2
10.5588554375,96,0x6F,0xA2
10.5588620625,96,0x20,0xA2
10.5588686875,96,0x77,0xA2
10.5588753125,96,0x6F,0xA2
10.5588819375,96,0x72,0xA2
10.5588885625,96,0x6C,0xA2
10.5588951875,96,0x64,0xA2
10.5589018125,96,0x20,0xA2
10.5589084375,96,0x6E,0xA2
10.5589150625,96,0x75,0xA2
10.5589216875,96,0x6D,0xA2
10.5589283125,96,0x62,0xA2
10.5589349375,96,0x65,0xA2
10.5589415625,96,0x72,0xA2
10.5589481875,96,0x20,0xA2
10.5589548125,96,0x30,0xA2
10.5589614375,96,0x2E,0xA2
10.5589680625,96,0x30,0xA2
10.5589746875,96,0x39,0xA2
10.5589871250,97,0x83,0xA2
10.5589937187,97,0x00,0xA2
10.5590003437,97,0x00,0xA2
10.5590069687,97,0x00,0xA2
10.6330948125,98,0x12,0xAC
10.6331014062,98,0x00,0xAC
10.6331088437,98,0x00,0x00
10.6331154687,98,0x00,0x01
10.6331277187,99,0x02,0xAC
10.6331343437,99,0xFF,0xAC
10.6331409687,99,0xFF,0xAC
11.6336540937,100,0xC0,0xAC
11.6336606875,100,0x00,0x2C
11.6336727500,101,0x08,0xAC
11.6336793750,101,0x02,0xAC
11.6336860000,101,0x01,0xAC
11.6336926250,101,0x02,0xAC
11.6336992500,101,0x01,0xAC
11.6337058750,101,0x00,0xAC
11.6337125000,101,0x00,0xAC
11.6337191250,101,0x00,0xAC
11.6337257500,101,0x00,0xAC
11.6337423437,102,0xC0,0xAC
11.6337489687,102,0x00,0x2C
11.6337602500,103,0x8C,0xAC
11.6337668437,103,0x00,0xAC
11.6337734687,103,0x08,0xAC
11.6337800937,103,0x00,0xAC
11.6337867187,103,0x17,0xAC
11.6337933437,103,0x01,0xAC
11.6337999688,103,0x00,0xAC
11.6338227812,104,0xC0,0xA2
11.6338294062,104,0x00,0x22
11.6338406250,105,0x0E,0xA2
11.6338472187,105,0x00,0xA2
11.6338538437,105,0x48,0xA2
11.6338604687,105,0x65,0xA2
11.6338670937,105,0x6C,0xA2
11.6338737187,105,0x6C,0xA2
11.6338803437,105,0x6F,0xA2
11.6338869687,105,0x20,0xA2
11.6338935937,105,0x77,0xA2
11.6339002187,105,0x6F,0xA2
11.6339068437,105,0x72,0xA2
11.6339134687,105,0x6C,0xA2
11.6339200937,105,0x64,0xA2
11.6339267187,105,0x20,0xA2
11.6339333437,105,0x6E,0xA2
11.6339399687,105,0x75,0xA2
11.6339465937,105,0x6D,0xA2
11.6339532187,105,0x62,0xA2
11.6339598437,105,0x65,0xA2
11.6339664687,105,0x72,0xA2
11.6339730937,105,0x20,0xA2
11.6339797187,105,0x30,0xA2
11.6339863437,105,0x2E,0xA2
11.6339929687,105,0x31,0xA2
11.6339995937,105,0x30,0xA2
11.6340120312,106,0x83,0xA2
11.6340186250,106,0x00,0xA2
11.6340252500,106,0x00,0xA2
11.6340318750,106,0x00,0xA2
11.7081259062,107,0x12,0xAC
11.7081325000,107,0x00,0xAC
11.7081399375,107,0x00,0x00
11.7081465625,107,0x00,0x01
11.7081588437,108,0x02,0xAC
11.7081654687,108,0xFF,0xAC
11.7081720937,108,0xFF,0xAC
12.7086814375,109,0xC0,0xAC
12.7086880312,109,0x00,0x2C
12.7087001562,110,0x08,0xAC
12.7087067812,110,0x02,0xAC
12.7087134062,110,0x01,0xAC
12.7087200312,110,0x02,0xAC
12.7087266562,110,0x01,0xAC
12.7087332812,110,0x00,0xAC
12.7087399062,110,0x00,0xAC
12.7087465312,110,0x00,0xAC
12.7087531562,110,0x00,0xAC
12.7087697187,111,0xC0,0xAC
12.7087763125,111,0x00,0x2C
12.7087875937,112,0x8C,0xAC
12.7087942187,112,0x00,0xAC
12.7088008437,112,0x08,0xAC
12.7088074687,112,0x00,0xAC
12.7088140937,112,0x17,0xAC
12.7088207187,112,0x01,0xAC
12.7088273437,112,0x00,0xAC
12.7088494375,113,0xC0,0xA2
12.7088560312,113,0x00,0x22
12.7088673437,114,0x0E,0xA2
12.7088739375,114,0x00,0xA2
12.7088805625,114,0x48,0xA2
12.7088871875,114,0x65,0xA2
12.7088938125,114,0x6C,0xA2
12.7089004375,114,0x6C,0xA2
12.7089070625,114,0x6F,0xA2
12.7089136875,114,0x20,0xA2
12.7089203125,114,0x77,0xA2
12.7089269375,114,0x6F,0xA2
12.7089335625,114,0x72,0xA2
12.7089401875,114,0x6C,0xA2
12.7089468125,114,0x64,0xA2
12.7089534375,114,0x20,0xA2
12.7089600625,114,0x6E,0xA2
12.7089666875,114,0x75,0xA2
12.7089733125,114,0x6D,0xA2
12.7089799375,114,0x62,0xA2
12.7089865625,114,0x65,0xA2
12.7089931875,114,0x72,0xA2
12.7089998125,114,0x20,0xA2
12.7090064375,114,0x30,0xA2
12.7090130625,114,0x2E,0xA2
12.7090196875,114,0x31,0xA2
12.7090263125,114,0x31,0xA2
12.7090387812,115,0x83,0xA2
12.7090453750,115,0x00,0xA2
12.7090520000,115,0x00,0xA2
12.7090586250,115,0x00,0xA2
12.7831443750,116,0x12,0xAC
12.7831510000,116,0x00,0xAC
12.7831584062,116,0x00,0x00
12.7831650625,116,0x00,0x01
12.7831773437,117,0x02,0xAC
12.7831839687,117,0xFF,0xAC
12.7831905937,117,0xFF,0xAC
13.7836992500,118,0xC0,0xAC
13.7837058750,118,0x00,0x2C
13.7837180000,119,0x08,0xAC
13.7837245937,119,0x02,0xAC
13.7837312187,119,0x01,0xAC
13.7837378437,119,0x02,0xAC
13.7837444687,119,0x01,0xAC
13.7837510937,119,0x00,0xAC
13.7837577187,119,0x00,0xAC
13.7837643437,119,0x00,0xAC
13.7837709687,119,0x00,0xAC
13.7837881875,120,0xC0,0xAC
13.7837947812,120,0x00,0x2C
13.7838060937,121,0x8C,0xAC
13.7838126875,121,0x00,0xAC
13.7838193125,121,0x08,0xAC
13.7838259375,121,0x00,0xAC
13.7838325625,121,0x17,0xAC
13.7838391875,121,0x01,0xAC
13.7838458125,121,0x00,0xAC
13.7838685937,122,0xC0,0xA2
13.7838751875,122,0x00,0x22
13.7838864375,123,0x0E,0xA2
13.7838930312,123,0x00,0xA2
13.7838996562,123,0x48,0xA2
13.7839062812,123,0x65,0xA2
13.7839129062,123,0x6C,0xA2
13.7839195312,123,0x6C,0xA2
13.7839261562,123,0x6F,0xA2
13.7839327812,123,0x20,0xA2
13.7839394062,123,0x77,0xA2
13.7839460312,123,0x6F,0xA2
13.7839526562,123,0x72,0xA2
13.7839592812,123,0x6C,0xA2
13.7839659062,123,0x64,0xA2
13.7839725312,123,0x20,0xA2
13.7839791562,123,0x6E,0xA2
13.7839857812,123,0x75,0xA2
13.7839924062,123,0x6D,0xA2
13.7839990312,123,0x62,0xA2
13.7840056562,123,0x65,0xA2
13.7840122812,123,0x72,0xA2
13.7840189062,123,0x20,0xA2
13.7840255312,123,0x30,0xA2
13.7840321562,123,0x2E,0xA2
13.7840387812,123,0x31,0xA2
13.7840454062,123,0x32,0xA2
13.7840578125,124,0x83,0xA2
13.7840644062,124,0x00,0xA2
13.7840710312,124,0x00,0xA2
13.7840776562,124,0x00,0xA2
13.8581708125,125,0x12,0xAC
13.8581774062,125,0x00,0xAC
13.8581848437,125,0x00,0x00
13.8581914687,125,0x00,0x01
13.8582038125,126,0x02,0xAC
13.8582104062,126,0xFF,0xAC
13.8582170312,126,0xFF,0xAC
14.8587380000,127,0xC0,0xAC
14.8587445937,127,0x00,0x2C
14.8587567187,128,0x08,0xAC
14.8587633125,128,0x02,0xAC
14.8587699375,128,0x01,0xAC
14.8587765625,128,0x02,0xAC
14.8587831875,128,0x01,0xAC
14.8587898125,128,0x00,0xAC
14.8587964375,128,0x00,0xAC
14.8588030625,128,0x00,0xAC
14.8588096875,128,0x00,0xAC
14.8588262500,129,0xC0,0xAC
14.8588328750,129,0x00,0x2C
14.8588441563,130,0x8C,0xAC
14.8588507812,130,0x00,0xAC
14.8588574062,130,0x08,0xAC
14.8588640312,130,0x00,0xAC
14.8588706562,130,0x17,0xAC
14.8588772812,130,0x01,0xAC
14.8588839062,130,0x00,0xAC
14.8589077500,131,0xC0,0xA2
14.8589143437,131,0x00,0x22
14.8589256250,132,0x0E,0xA2
14.8589322500,132,0x00,0xA2
14.8589388750,132,0x48,0xA2
14.8589455000,132,0x65,0xA2
14.8589521250,132,0x6C,0xA2
14.8589587500,132,0x6C,0xA2
14.8589653750,132,0x6F,0xA2
14.8589720000,132,0x20,0xA2
14.8589786250,132,0x77,0xA2
14.8589852500,132,0x6F,0xA2
14.8589918750,132,0x72,0xA2
14.8589985000,132,0x6C,0xA2
14.8590051250,132,0x64,0xA2
14.8590117500,132,0x20,0xA2
14.8590183750,132,0x6E,0xA2
14.8590250000,132,0x75,0xA2
14.8590316250,132,0x6D,0xA2
14.8590382500,132,0x62,0xA2
14.8590448750,132,0x65,0xA2
14.8590515000,132,0x72,0xA2
14.8590581250,132,0x20,0xA2
14.8590647500,132,0x30,0xA2
14.8590713750,132,0x2E,0xA2
14.8590780000,132,0x31,0xA2
14.8590846250,132,0x33,0xA2
14.8590970000,133,0x83,0xA2
14.8591036250,133,0x00,0xA2
14.8591102500,133,0x00,0xA2
14.8591168750,133,0x00,0xA2
14.9332100625,134,0x12,0xAC
14.9332166875,134,0x00,0xAC
14.9332240937,134,0x00,0x00
14.9332307500,134,0x00,0x01
14.9332430313,135,0x02,0xAC
14.9332496250,135,0xFF,0xAC
14.9332562500,135,0xFF,0xAC
